
T14F8 000:025 SEGGER J-Link V4.76d Log File (0001ms, 0026ms total)
T14F8 000:025 DLL Compiled: Sep 13 2013 16:35:06 (0001ms, 0026ms total)
T14F8 000:025 Logging started @ 2014-03-10 18:37 (0001ms, 0026ms total)
T14F8 000:026 JLINK_SetWarnOutHandler(...) (0000ms, 0026ms total)
T14F8 000:026 JLINK_OpenEx(...)
Firmware: J-Link ARM-OB STM32 compiled Aug 22 2012 19:52:04
Hardware: V7.00
S/N: 20090928
Feature(s): RDI,FlashDL,FlashBP,JFlash,GDBFull  returns O.K. (0014ms, 0040ms total)
T14F8 000:040 JLINK_SetErrorOutHandler(...) (0000ms, 0040ms total)
T14F8 000:040 JLINK_ExecCommand("ProjectFile = "C:\Users\Long\Desktop\SDCardProject\Wordspace\lpc1764-sdcard\MDK\JLinkSettings.ini"", ...)  returns 0x00 (0000ms, 0040ms total)
T14F8 000:040 JLINK_ExecCommand("Device = LPC1768", ...)
                JLINK_AddMirrorAreaEx(Addr = 0x00000000, Size = 0x00000000) (0000ms, 0000ms total)
              Device "LPC1768" selected (512 KB flash, 32 KB RAM).  returns 0x00 (0003ms, 0043ms total)
T14F8 000:043 JLINK_ExecCommand("DisableConnectionTimeout", ...)  returns 0x01 (0000ms, 0043ms total)
T14F8 000:043 JLINK_GetHardwareVersion()  returns 0x11170 (0000ms, 0043ms total)
T14F8 000:043 JLINK_GetDLLVersion()  returns 47604 (0000ms, 0043ms total)
T14F8 000:043 JLINK_GetFirmwareString(...) (0000ms, 0043ms total)
T14F8 000:043 JLINK_GetDLLVersion()  returns 47604 (0000ms, 0043ms total)
T14F8 000:043 JLINK_GetCompileDateTime() (0000ms, 0043ms total)
T14F8 000:043 JLINK_GetFirmwareString(...) (0000ms, 0043ms total)
T14F8 000:043 JLINK_GetHardwareVersion()  returns 0x11170 (0000ms, 0043ms total)
T14F8 000:044 JLINK_TIF_Select(JLINKARM_TIF_SWD)  returns 0x00 (0002ms, 0045ms total)
T14F8 000:046 JLINK_SetSpeed(3000) (0000ms, 0045ms total)
T14F8 000:046 JLINK_GetId() >0x108 TIF>Found SWD-DP with ID 0x2BA01477 >0x0D TIF> >0x21 TIF> >0x0D TIF> >0x28 TIF> >0x0D TIF> >0x28 TIF> >0x0D TIF> >0x21 TIF> >0x0D TIF> >0x28 TIF> >0x0D TIF> >0x21 TIF> >0x0D TIF> >0x21 TIF> >0x0D TIF> >0x21 TIF> >0x0D TIF> >0x21 TIF> >0x0D TIF> >0x28 TIF> >0x0D TIF> >0x28 TIF> >0x0D TIF> >0x21 TIF> >0x0D TIF> >0x28 TIF> >0x0D TIF> >0x28 TIF> >0x0D TIF> >0x28 TIF> >0x0D TIF> >0x21 TIF> >0x0D TIF> >0x21 TIF> >0x0D TIF> >0x28 TIF> >0x0D TIF> >0x21 TIF> >0x0D TIF>
 >0x21 TIF>Found Cortex-M3 r2p0, Little endian. -- CPU_WriteMem(4 bytes @ 0xE0002000) -- CPU_ReadMem(4 bytes @ 0xE000EDF0) -- CPU_ReadMem(4 bytes @ 0xE0002000)FPUnit: 6 code (BP) slots and 2 literal slots -- CPU_ReadMem(4 bytes @ 0xE000EDFC) -- CPU_ReadMem(4 bytes @ 0xE0001000) -- CPU_WriteMem(4 bytes @ 0xE0001000) -- CPU_ReadMem(4 bytes @ 0xE00FF010)TPIU fitted. -- CPU_ReadMem(4 bytes @ 0xE00FF014)ETM fitted. -- CPU_ReadMem(4 bytes @ 0xE00FF018) >0x0D TIF> >0x21 TIF>  returns 0x2BA01477
 (0025ms, 0070ms total)
T14F8 000:071 JLINK_GetDeviceFamily()  returns 3 (0000ms, 0070ms total)
T14F8 000:071 JLINK_ReadMem (0xE00FFFF0, 0x0010 Bytes, ...) -- CPU is running -- CPU_ReadMem(16 bytes @ 0xE00FFFF0) -- Data:  0D 00 00 00 10 00 00 00 05 00 00 00 B1 00 00 00  returns 0x00 (0001ms, 0071ms total)
T14F8 000:072 JLINK_ReadMem (0xE00FFFD0, 0x0020 Bytes, ...) -- CPU is running -- CPU_ReadMem(32 bytes @ 0xE00FFFD0) -- Data:  00 00 00 00 00 00 00 00 00 00 00 00 00 00 00 00 ...  returns 0x00 (0001ms, 0072ms total)
T14F8 000:073 JLINK_ReadMem (0xE00FF000, 0x0018 Bytes, ...) -- CPU is running -- CPU_ReadMem(24 bytes @ 0xE00FF000) -- Data:  03 F0 F0 FF 03 20 F0 FF 03 30 F0 FF 03 10 F0 FF ...  returns 0x00 (0001ms, 0073ms total)
T14F8 000:074 JLINK_ReadMemU32(0xE000ED00, 0x0001 Items, ...) -- CPU is running -- CPU_ReadMem(4 bytes @ 0xE000ED00) -- Data:  30 C2 2F 41  returns 0x01 (0001ms, 0074ms total)
T14F8 000:075 JLINK_SetResetType(JLINKARM_RESET_TYPE_NORMAL)  returns ??? (0000ms, 0074ms total)
T14F8 000:075 JLINK_Reset() -- CPU is running -- CPU_WriteMem(4 bytes @ 0xE000EDF0) -- CPU is running -- CPU_WriteMem(4 bytes @ 0xE000EDFC) >0x35 TIF> -- CPU is running -- CPU_WriteMem(4 bytes @ 0xE000ED0C) -- CPU is running -- CPU_ReadMem(4 bytes @ 0xE000EDF0) -- CPU is running -- CPU_ReadMem(4 bytes @ 0xE000EDF0) -- CPU is running -- CPU_WriteMem(4 bytes @ 0xE000EDF0) -- CPU is running -- CPU_WriteMem(4 bytes @ 0xE000EDFC) -- CPU is running -- CPU_ReadMem(4 bytes @ 0xE000EDF0)
 -- CPU_WriteMem(4 bytes @ 0xE000EDFC) -- CPU_WriteMem(4 bytes @ 0xE000EDFC) -- CPU_WriteMem(4 bytes @ 0xE000EDFC) -- CPU_WriteMem(4 bytes @ 0xE000EDFC) -- CPU_WriteMem(4 bytes @ 0xE000EDFC) -- CPU_WriteMem(4 bytes @ 0xE0001050) -- CPU_WriteMem(4 bytes @ 0xE0001054) -- CPU_WriteMem(4 bytes @ 0xE0001058) -- CPU_WriteMem(4 bytes @ 0xE000EDFC) -- CPU_WriteMem(4 bytes @ 0xE0001058) -- CPU_ReadMem(4 bytes @ 0x00000004) -- CPU_ReadMem(4 bytes @ 0xE0002000) -- CPU_ReadMem(4 bytes @ 0xE0002008)
 -- CPU_ReadMem(4 bytes @ 0xE000200C) -- CPU_ReadMem(4 bytes @ 0xE0002010) -- CPU_ReadMem(4 bytes @ 0xE0002014) -- CPU_ReadMem(4 bytes @ 0xE0002018) -- CPU_ReadMem(4 bytes @ 0xE000201C) -- CPU_WriteMem(4 bytes @ 0xE0002000) -- CPU_WriteMem(4 bytes @ 0xE0002008) -- CPU_WriteMem(4 bytes @ 0xE000200C) -- CPU_WriteMem(4 bytes @ 0xE0002010) -- CPU_WriteMem(4 bytes @ 0xE0002014) -- CPU_WriteMem(4 bytes @ 0xE0002018) -- CPU_WriteMem(4 bytes @ 0xE000201C)
                JLINK_ReadMemHW(0x400FC040, 0x0004 Bytes, ...) -- CPU_ReadMem(4 bytes @ 0x400FC040) -- Data:  01 00 00 00  returns 0x00 (0001ms, 0001ms total)
               -- MA0 is in flash -- Unmirror addr 0x000000E4 -- CPU_WriteMem(4 bytes @ 0xE0002000) -- CPU_WriteMem(4 bytes @ 0xE0002008) -- CPU_WriteMem(4 bytes @ 0xE000200C) -- CPU_WriteMem(4 bytes @ 0xE0002010) -- CPU_WriteMem(4 bytes @ 0xE0002014) -- CPU_WriteMem(4 bytes @ 0xE0002018) -- CPU_WriteMem(4 bytes @ 0xE000201C) -- CPU_WriteMem(4 bytes @ 0xE0002000) (0258ms, 0332ms total)
T14F8 000:333 JLINK_ReadReg(R15 (PC))  returns 0x000000E4 (0000ms, 0332ms total)
T14F8 000:333 JLINK_ReadReg(XPSR)  returns 0x61000000 (0000ms, 0332ms total)
T14F8 000:334 JLINK_Halt()  returns 0x00 (0000ms, 0333ms total)
T14F8 000:334 JLINK_IsHalted() -- Unmirror addr 0x000000E4  returns TRUE (0000ms, 0333ms total)
T14F8 000:334 JLINK_ReadMemU32(0xE000EDF0, 0x0001 Items, ...) -- CPU_ReadMem(4 bytes @ 0xE000EDF0) -- Data:  03 00 03 00  returns 0x01 (0001ms, 0334ms total)
T14F8 000:335 JLINK_WriteU32(0xE000EDF0, 0xA05F0003) -- CPU_WriteMem(4 bytes @ 0xE000EDF0) -- Invalidate MA0 status  returns 0x00 (0000ms, 0334ms total)
T14F8 000:335 JLINK_WriteU32(0xE000EDFC, 0x01000000) -- CPU_WriteMem(4 bytes @ 0xE000EDFC)  returns 0x00 (0001ms, 0335ms total)
T14F8 000:337 JLINK_GetHWStatus(...)  returns 0x00 (0001ms, 0336ms total)
T14F8 000:338 JLINK_GetNumBPUnits(Type = 0xFFFFFF00)  returns 0x06 (0000ms, 0336ms total)
T14F8 000:338 JLINK_GetNumBPUnits(Type = 0xF0)  returns 0x2000 (0001ms, 0337ms total)
T14F8 000:339 JLINK_GetNumWPUnits()  returns 0x04 (0000ms, 0337ms total)
T14F8 000:339 JLINK_GetSpeed()  returns 0xA6B (0000ms, 0337ms total)
T14F8 000:340 JLINK_ReadMemU32(0xE000E004, 0x0001 Items, ...) -- CPU_ReadMem(4 bytes @ 0xE000E004) -- Data:  01 00 00 00  returns 0x01 (0001ms, 0338ms total)
T14F8 000:341 JLINK_ReadMemU32(0xE000E004, 0x0001 Items, ...) -- CPU_ReadMem(4 bytes @ 0xE000E004) -- Data:  01 00 00 00  returns 0x01 (0001ms, 0339ms total)
T14F8 000:342 JLINK_WriteMem(0xE0001000, 0x001C Bytes, ...) -- Data:  01 00 00 00 00 00 00 00 00 00 00 00 00 00 00 00 ... -- CPU_WriteMem(28 bytes @ 0xE0001000)  returns 0x1C (0001ms, 0340ms total)
T14F8 000:343 JLINK_ReadMem (0xE0001000, 0x001C Bytes, ...) -- CPU_ReadMem(28 bytes @ 0xE0001000) -- Data:  01 00 00 40 00 00 00 00 00 00 00 00 00 00 00 00 ...  returns 0x00 (0001ms, 0341ms total)
T14F8 000:344 JLINK_ReadReg(R15 (PC))  returns 0x000000E4 (0000ms, 0341ms total)
T14F8 000:344 JLINK_ReadReg(XPSR)  returns 0x61000000 (0000ms, 0341ms total)
T14F8 000:355 JLINK_WriteU8(0x400FC040, 0x01) -- CPU_WriteMem(1 bytes @ 0x400FC040)  returns 0x00 (0001ms, 0342ms total)
T14F8 000:371 JLINK_ReadMem (0x00000000, 0x1000 Bytes, ...)
                JLINK_ReadMemHW(0x400FC040, 0x0004 Bytes, ...) -- CPU_ReadMem(4 bytes @ 0x400FC040) -- Data:  01 00 00 00  returns 0x00 (0001ms, 0001ms total)
               -- MA0 is in flash -- Unmirror addr 0x00000000
                JLINK_ReadMemHW(0x400FC040, 0x0004 Bytes, ...) -- CPU_ReadMem(4 bytes @ 0x400FC040) -- Data:  01 00 00 00  returns 0x00 (0001ms, 0002ms total)
               -- CPU_ReadMem(4096 bytes @ 0x00000000) -- Updating CM cache (4096 bytes @ 0x00000000) -- Read from CM cache (4096 bytes @ 0x00000000) -- Data:  08 0B 00 10 E5 00 00 00 E9 00 00 00 EB 00 00 00 ...  returns 0x00 (0044ms, 0386ms total)
T14F8 000:417 JLINK_ReadMem (0x00001000, 0x1000 Bytes, ...) -- Unmirror addr 0x00001000 -- CPU_ReadMem(4096 bytes @ 0x00001000) -- Updating CM cache (4096 bytes @ 0x00001000) -- Read from CM cache (4096 bytes @ 0x00001000) -- Data:  4E 20 01 F0 63 FA 29 46 4F 20 01 F0 5F FA 07 E0 ...  returns 0x00 (0042ms, 0428ms total)
T14F8 000:461 JLINK_ReadMem (0x00002000, 0x1000 Bytes, ...) -- Unmirror addr 0x00002000 -- CPU_ReadMem(4096 bytes @ 0x00002000) -- Updating CM cache (4096 bytes @ 0x00002000) -- Read from CM cache (4096 bytes @ 0x00002000) -- Data:  3C 20 FF F7 BD F8 4F F4 FA 70 FF F7 F9 FE FE F7 ...  returns 0x00 (0042ms, 0470ms total)
T14F8 000:505 JLINK_ReadMem (0x00003000, 0x1000 Bytes, ...) -- Unmirror addr 0x00003000 -- CPU_ReadMem(4096 bytes @ 0x00003000) -- Updating CM cache (4096 bytes @ 0x00003000) -- Read from CM cache (4096 bytes @ 0x00003000) -- Data:  00 00 00 00 00 00 E0 03 E0 03 60 00 60 00 60 00 ...  returns 0x00 (0043ms, 0513ms total)
T14F8 000:550 JLINK_ReadMem (0x00004000, 0x05D8 Bytes, ...) -- Unmirror addr 0x00004000 -- CPU_ReadMem(1536 bytes @ 0x00004000) -- Updating CM cache (1536 bytes @ 0x00004000) -- Read from CM cache (1496 bytes @ 0x00004000) -- Data:  64 58 40 40 24 1C 00 00 00 00 00 00 00 00 18 18 ...  returns 0x00 (0017ms, 0530ms total)
T14F8 000:624 JLINK_SetResetType(JLINKARM_RESET_TYPE_NORMAL)  returns ??? (0000ms, 0530ms total)
T14F8 000:624 JLINK_Reset() -- CPU_WriteMem(4 bytes @ 0xE000EDF0) -- CPU_WriteMem(4 bytes @ 0xE000EDFC) >0x35 TIF> -- CPU_WriteMem(4 bytes @ 0xE000ED0C) -- CPU_ReadMem(4 bytes @ 0xE000EDF0) -- CPU_ReadMem(4 bytes @ 0xE000EDF0) -- CPU_WriteMem(4 bytes @ 0xE000EDF0) -- CPU_WriteMem(4 bytes @ 0xE000EDFC) -- CPU is running -- CPU_ReadMem(4 bytes @ 0xE000EDF0) -- CPU_WriteMem(4 bytes @ 0xE000EDFC) -- CPU_WriteMem(4 bytes @ 0xE000EDFC) -- CPU_WriteMem(4 bytes @ 0xE000EDFC) -- CPU_WriteMem(4 bytes @ 0xE000EDFC)
 -- CPU_WriteMem(4 bytes @ 0xE000EDFC) -- CPU_WriteMem(4 bytes @ 0xE0001050) -- CPU_WriteMem(4 bytes @ 0xE0001054) -- CPU_WriteMem(4 bytes @ 0xE0001058) -- Invalidate MA0 status -- CPU_WriteMem(4 bytes @ 0xE000EDFC) -- CPU_WriteMem(4 bytes @ 0xE0001058) -- CPU_ReadMem(4 bytes @ 0x00000004) -- CPU_ReadMem(4 bytes @ 0xE0002000) -- CPU_ReadMem(4 bytes @ 0xE0002008) -- CPU_ReadMem(4 bytes @ 0xE000200C) -- CPU_ReadMem(4 bytes @ 0xE0002010) -- CPU_ReadMem(4 bytes @ 0xE0002014)
 -- CPU_ReadMem(4 bytes @ 0xE0002018) -- CPU_ReadMem(4 bytes @ 0xE000201C) -- CPU_WriteMem(4 bytes @ 0xE0002000) -- CPU_WriteMem(4 bytes @ 0xE0002008) -- CPU_WriteMem(4 bytes @ 0xE000200C) -- CPU_WriteMem(4 bytes @ 0xE0002010) -- CPU_WriteMem(4 bytes @ 0xE0002014) -- CPU_WriteMem(4 bytes @ 0xE0002018) -- CPU_WriteMem(4 bytes @ 0xE000201C)
                JLINK_ReadMemHW(0x400FC040, 0x0004 Bytes, ...) -- CPU_ReadMem(4 bytes @ 0x400FC040) -- Data:  01 00 00 00  returns 0x00 (0000ms, 0000ms total)
               -- MA0 is in flash -- Unmirror addr 0x000000E4 -- CPU_WriteMem(4 bytes @ 0xE0002000) -- CPU_WriteMem(4 bytes @ 0xE0002008) -- CPU_WriteMem(4 bytes @ 0xE000200C) -- CPU_WriteMem(4 bytes @ 0xE0002010) -- CPU_WriteMem(4 bytes @ 0xE0002014) -- CPU_WriteMem(4 bytes @ 0xE0002018) -- CPU_WriteMem(4 bytes @ 0xE000201C) -- CPU_WriteMem(4 bytes @ 0xE0002000) (0261ms, 0791ms total)
T14F8 000:885 JLINK_ReadReg(R15 (PC))  returns 0x000000E4 (0000ms, 0791ms total)
T14F8 000:885 JLINK_ReadReg(XPSR)  returns 0x61000000 (0000ms, 0791ms total)
T14F8 000:886 JLINK_ReadMem (0x000000E4, 0x003C Bytes, ...) -- Unmirror addr 0x000000E4 -- CPU_ReadMem(128 bytes @ 0x000000C0) -- Updating CM cache (128 bytes @ 0x000000C0) -- Read from CM cache (60 bytes @ 0x000000E4) -- Data:  05 48 00 47 FE E7 FE E7 FE E7 FE E7 FE E7 FE E7 ...  returns 0x00 (0002ms, 0793ms total)
T14F8 001:537 JLINK_ReadMem (0x10000004, 0x0004 Bytes, ...) -- CPU_ReadMem(64 bytes @ 0x10000000) -- Updating C cache (64 bytes @ 0x10000000) -- Read from C cache (4 bytes @ 0x10000004) -- Data:  15 40 EF 00  returns 0x00 (0001ms, 0794ms total)
T2C10 001:551 JLINK_SetBPEx(Addr = 0x00001EB4, Type = 0xFFFFFFF2) -- Unmirror addr 0x00001EB4  returns 0x00000001 (0000ms, 0794ms total)
T2C10 001:551 JLINK_SetBPEx(Addr = 0x000005A6, Type = 0xFFFFFFF2) -- Unmirror addr 0x000005A6 -- Unmirror addr 0x00001EB4  returns 0x00000002 (0000ms, 0794ms total)
T2C10 001:551 JLINK_SetBPEx(Addr = 0x000008E0, Type = 0xFFFFFFF2) -- Unmirror addr 0x000008E0 -- Unmirror addr 0x00001EB4 -- Unmirror addr 0x000005A6  returns 0x00000003 (0000ms, 0794ms total)
T2C10 001:551 JLINK_SetBPEx(Addr = 0x0000171C, Type = 0xFFFFFFF2) -- Unmirror addr 0x0000171C -- Unmirror addr 0x00001EB4 -- Unmirror addr 0x000005A6 -- Unmirror addr 0x000008E0  returns 0x00000004 (0000ms, 0794ms total)
T2C10 001:551 JLINK_Go() -- CPU_WriteMem(4 bytes @ 0xE0002000) -- CPU_WriteMem(4 bytes @ 0xE0002000) -- CPU_WriteMem(4 bytes @ 0xE0002000) -- CPU_WriteMem(4 bytes @ 0xE0002000) -- Invalidate MA0 status -- CPU_WriteMem(4 bytes @ 0xE0002008) -- CPU_WriteMem(4 bytes @ 0xE000200C) -- CPU_WriteMem(4 bytes @ 0xE0002010) -- CPU_WriteMem(4 bytes @ 0xE0002014) -- CPU_WriteMem(4 bytes @ 0xE0002018) -- CPU_WriteMem(4 bytes @ 0xE000201C) (0006ms, 0800ms total)
T2C10 001:658 JLINK_IsHalted()
                JLINK_ReadMemHW(0x400FC040, 0x0004 Bytes, ...) -- CPU_ReadMem(4 bytes @ 0x400FC040) -- Data:  01 00 00 00  returns 0x00 (0001ms, 0001ms total)
               -- MA0 is in flash -- Unmirror addr 0x00001EB4 -- Unmirror addr 0x00001EB4 -- Unmirror addr 0x00001EB4 -- Unmirror addr 0x00001EB4  returns TRUE (0005ms, 0805ms total)
T2C10 001:663 JLINK_Halt()  returns 0x00 (0000ms, 0800ms total)
T2C10 001:663 JLINK_IsHalted() -- Unmirror addr 0x00001EB4 -- Unmirror addr 0x00001EB4  returns TRUE (0000ms, 0800ms total)
T2C10 001:663 JLINK_IsHalted() -- Unmirror addr 0x00001EB4 -- Unmirror addr 0x00001EB4  returns TRUE (0000ms, 0800ms total)
T2C10 001:663 JLINK_IsHalted() -- Unmirror addr 0x00001EB4 -- Unmirror addr 0x00001EB4  returns TRUE (0000ms, 0800ms total)
T2C10 001:663 JLINK_ReadReg(R15 (PC))  returns 0x00001EB4 (0000ms, 0800ms total)
T2C10 001:663 JLINK_ReadReg(XPSR)  returns 0x61000000 (0000ms, 0800ms total)
T2C10 001:664 JLINK_ClrBPEx(BPHandle = 0x00000001)  returns 0x00 (0000ms, 0800ms total)
T2C10 001:664 JLINK_ClrBPEx(BPHandle = 0x00000002)  returns 0x00 (0000ms, 0800ms total)
T2C10 001:664 JLINK_ClrBPEx(BPHandle = 0x00000003)  returns 0x00 (0000ms, 0800ms total)
T2C10 001:664 JLINK_ClrBPEx(BPHandle = 0x00000004)  returns 0x00 (0000ms, 0800ms total)
T2C10 001:664 JLINK_ReadMemU32(0xE000ED30, 0x0001 Items, ...) -- CPU_ReadMem(4 bytes @ 0xE000ED30) -- Data:  03 00 00 00  returns 0x01 (0001ms, 0801ms total)
T2C10 001:665 JLINK_ReadMemU32(0xE0001028, 0x0001 Items, ...) -- CPU_ReadMem(4 bytes @ 0xE0001028) -- Data:  00 00 00 00  returns 0x01 (0001ms, 0802ms total)
T2C10 001:666 JLINK_ReadMemU32(0xE0001038, 0x0001 Items, ...) -- CPU_ReadMem(4 bytes @ 0xE0001038) -- Data:  00 02 00 00  returns 0x01 (0001ms, 0803ms total)
T2C10 001:667 JLINK_ReadMemU32(0xE0001048, 0x0001 Items, ...) -- CPU_ReadMem(4 bytes @ 0xE0001048) -- Data:  00 00 00 00  returns 0x01 (0001ms, 0804ms total)
T2C10 001:668 JLINK_ReadMemU32(0xE0001058, 0x0001 Items, ...) -- CPU_ReadMem(4 bytes @ 0xE0001058) -- Data:  00 00 00 01  returns 0x01 (0001ms, 0805ms total)
T2C10 001:669 JLINK_ReadReg(R0)  returns 0x00001EB5 (0000ms, 0805ms total)
T2C10 001:669 JLINK_ReadReg(R1)  returns 0x10000B08 (0000ms, 0805ms total)
T2C10 001:669 JLINK_ReadReg(R2)  returns 0x00000000 (0000ms, 0805ms total)
T2C10 001:669 JLINK_ReadReg(R3)  returns 0x00001DE5 (0000ms, 0805ms total)
T2C10 001:669 JLINK_ReadReg(R4)  returns 0x00004500 (0000ms, 0805ms total)
T2C10 001:669 JLINK_ReadReg(R5)  returns 0x00004500 (0000ms, 0805ms total)
T2C10 001:669 JLINK_ReadReg(R6)  returns 0x12345678 (0000ms, 0805ms total)
T2C10 001:669 JLINK_ReadReg(R7)  returns 0x00000000 (0000ms, 0805ms total)
T2C10 001:669 JLINK_ReadReg(R8)  returns 0x00000000 (0000ms, 0805ms total)
T2C10 001:669 JLINK_ReadReg(R9)  returns 0x100001DC (0000ms, 0805ms total)
T2C10 001:669 JLINK_ReadReg(R10)  returns 0x00000000 (0000ms, 0805ms total)
T2C10 001:669 JLINK_ReadReg(R11)  returns 0x00000000 (0001ms, 0806ms total)
T2C10 001:670 JLINK_ReadReg(R12)  returns 0x00000000 (0000ms, 0806ms total)
T2C10 001:670 JLINK_ReadReg(R13 (SP))  returns 0x10000B08 (0000ms, 0806ms total)
T2C10 001:670 JLINK_ReadReg(R14)  returns 0x00000141 (0000ms, 0806ms total)
T2C10 001:670 JLINK_ReadReg(R15 (PC))  returns 0x00001EB4 (0000ms, 0806ms total)
T2C10 001:670 JLINK_ReadReg(XPSR)  returns 0x61000000 (0000ms, 0806ms total)
T2C10 001:670 JLINK_ReadReg(MSP)  returns 0x10000B08 (0000ms, 0806ms total)
T2C10 001:670 JLINK_ReadReg(PSP)  returns 0x10000800 (0000ms, 0806ms total)
T2C10 001:670 JLINK_ReadReg(CFBP)  returns 0x00000000 (0000ms, 0806ms total)
T14F8 001:675 JLINK_ReadMem (0x10000A80, 0x0002 Bytes, ...) -- CPU_ReadMem(64 bytes @ 0x10000A80) -- Updating C cache (64 bytes @ 0x10000A80) -- Read from C cache (2 bytes @ 0x10000A80) -- Data:  00 00  returns 0x00 (0001ms, 0807ms total)
T14F8 001:676 JLINK_ReadMem (0x00000000, 0x0004 Bytes, ...) -- Unmirror addr 0x00000000
                JLINK_ReadMemHW(0x400FC040, 0x0004 Bytes, ...) -- CPU_ReadMem(4 bytes @ 0x400FC040) -- Data:  01 00 00 00  returns 0x00 (0000ms, 0000ms total)
               -- CPU_ReadMem(64 bytes @ 0x00000000) -- Updating CM cache (64 bytes @ 0x00000000) -- Read from CM cache (4 bytes @ 0x00000000) -- Data:  08 0B 00 10  returns 0x00 (0003ms, 0810ms total)
T14F8 001:689 JLINK_ReadMemU32(0xE0001004, 0x0001 Items, ...) -- CPU_ReadMem(4 bytes @ 0xE0001004) -- Data:  89 15 00 00  returns 0x01 (0001ms, 0811ms total)
T14F8 001:711 JLINK_ReadMem (0x00002082, 0x0002 Bytes, ...) -- Unmirror addr 0x00002082 -- CPU_ReadMem(64 bytes @ 0x00002080) -- Updating CM cache (64 bytes @ 0x00002080) -- Read from CM cache (2 bytes @ 0x00002082) -- Data:  70 AB  returns 0x00 (0001ms, 0812ms total)
T14F8 001:712 JLINK_ReadMem (0x00002084, 0x003C Bytes, ...) -- Unmirror addr 0x00002084 -- Read from CM cache (60 bytes @ 0x00002084) -- Data:  4F F4 80 12 21 46 28 46 FE F7 0E FB 20 46 FE F7 ...  returns 0x00 (0000ms, 0812ms total)
T2C10 003:430 JLINK_ReadMem (0x00001EB4, 0x003C Bytes, ...) -- Unmirror addr 0x00001EB4 -- CPU_ReadMem(128 bytes @ 0x00001E80) -- Updating CM cache (128 bytes @ 0x00001E80) -- Read from CM cache (60 bytes @ 0x00001EB4) -- Data:  F0 B5 AD F5 0D 7D 00 26 01 20 70 90 FF F7 00 FE ...  returns 0x00 (0002ms, 0815ms total)
T2C10 003:432 JLINK_Step() -- Unmirror addr 0x00001EB4 -- Read from CM cache (2 bytes @ 0x00001EB4) -- CPU_WriteMem(20 bytes @ 0x10000AF4) -- Simulated  returns 0x00 (0002ms, 0817ms total)
T2C10 003:434 JLINK_ReadReg(R15 (PC))  returns 0x00001EB6 (0000ms, 0817ms total)
T2C10 003:434 JLINK_ReadReg(XPSR)  returns 0x61000000 (0000ms, 0817ms total)
T2C10 003:434 JLINK_Step() -- Unmirror addr 0x00001EB6 -- CPU_ReadMem(64 bytes @ 0x00001E80) -- Updating CM cache (64 bytes @ 0x00001E80) -- Read from CM cache (2 bytes @ 0x00001EB6) -- Unmirror addr 0x00001EB8 -- Read from CM cache (2 bytes @ 0x00001EB8) -- Not simulated -- Unmirror addr 0x00001EB6 -- Unmirror addr 0x00001EB6 -- Invalidate MA0 status -- CPU_WriteMem(4 bytes @ 0xE0002008) -- CPU_WriteMem(4 bytes @ 0xE000200C) -- CPU_WriteMem(4 bytes @ 0xE0002010) -- CPU_WriteMem(4 bytes @ 0xE0002014)
  returns 0x00 (0009ms, 0826ms total)
T2C10 003:443 JLINK_ReadReg(R15 (PC))  returns 0x00001EBA (0000ms, 0826ms total)
T2C10 003:443 JLINK_ReadReg(XPSR)  returns 0x61000000 (0000ms, 0826ms total)
T2C10 003:443 JLINK_ReadReg(R0)  returns 0x00001EB5 (0000ms, 0826ms total)
T2C10 003:443 JLINK_ReadReg(R1)  returns 0x10000B08 (0000ms, 0826ms total)
T2C10 003:443 JLINK_ReadReg(R2)  returns 0x00000000 (0000ms, 0826ms total)
T2C10 003:443 JLINK_ReadReg(R3)  returns 0x00001DE5 (0000ms, 0826ms total)
T2C10 003:443 JLINK_ReadReg(R4)  returns 0x00004500 (0000ms, 0826ms total)
T2C10 003:443 JLINK_ReadReg(R5)  returns 0x00004500 (0001ms, 0827ms total)
T2C10 003:444 JLINK_ReadReg(R6)  returns 0x12345678 (0000ms, 0827ms total)
T2C10 003:444 JLINK_ReadReg(R7)  returns 0x00000000 (0000ms, 0827ms total)
T2C10 003:444 JLINK_ReadReg(R8)  returns 0x00000000 (0000ms, 0827ms total)
T2C10 003:444 JLINK_ReadReg(R9)  returns 0x100001DC (0000ms, 0827ms total)
T2C10 003:444 JLINK_ReadReg(R10)  returns 0x00000000 (0000ms, 0827ms total)
T2C10 003:444 JLINK_ReadReg(R11)  returns 0x00000000 (0000ms, 0827ms total)
T2C10 003:444 JLINK_ReadReg(R12)  returns 0x00000000 (0000ms, 0827ms total)
T2C10 003:444 JLINK_ReadReg(R13 (SP))  returns 0x100008C0 (0000ms, 0827ms total)
T2C10 003:444 JLINK_ReadReg(R14)  returns 0x00000141 (0000ms, 0827ms total)
T2C10 003:444 JLINK_ReadReg(R15 (PC))  returns 0x00001EBA (0000ms, 0827ms total)
T2C10 003:444 JLINK_ReadReg(XPSR)  returns 0x61000000 (0000ms, 0827ms total)
T2C10 003:444 JLINK_ReadReg(MSP)  returns 0x100008C0 (0000ms, 0827ms total)
T2C10 003:444 JLINK_ReadReg(PSP)  returns 0x10000800 (0000ms, 0827ms total)
T2C10 003:444 JLINK_ReadReg(CFBP)  returns 0x00000000 (0000ms, 0827ms total)
T14F8 003:444 JLINK_ReadMem (0x10000B04, 0x0004 Bytes, ...) -- CPU_ReadMem(64 bytes @ 0x10000B00) -- Updating C cache (64 bytes @ 0x10000B00) -- Read from C cache (4 bytes @ 0x10000B04) -- Data:  41 01 00 00  returns 0x00 (0001ms, 0828ms total)
T14F8 003:446 JLINK_ReadMem (0x10000A80, 0x0002 Bytes, ...) -- CPU_ReadMem(64 bytes @ 0x10000A80) -- Updating C cache (64 bytes @ 0x10000A80) -- Read from C cache (2 bytes @ 0x10000A80) -- Data:  00 00  returns 0x00 (0001ms, 0830ms total)
T14F8 003:447 JLINK_ReadMem (0x00000000, 0x0004 Bytes, ...)
                JLINK_ReadMemHW(0x400FC040, 0x0004 Bytes, ...) -- CPU_ReadMem(4 bytes @ 0x400FC040) -- Data:  01 00 00 00  returns 0x00 (0001ms, 0001ms total)
               -- MA0 is in flash -- Unmirror addr 0x00000000
                JLINK_ReadMemHW(0x400FC040, 0x0004 Bytes, ...) -- CPU_ReadMem(4 bytes @ 0x400FC040) -- Data:  01 00 00 00  returns 0x00 (0001ms, 0002ms total)
               -- CPU_ReadMem(64 bytes @ 0x00000000) -- Updating CM cache (64 bytes @ 0x00000000) -- Read from CM cache (4 bytes @ 0x00000000) -- Data:  08 0B 00 10  returns 0x00 (0003ms, 0833ms total)
T14F8 003:450 JLINK_ReadMemU32(0xE0001004, 0x0001 Items, ...) -- CPU_ReadMem(4 bytes @ 0xE0001004) -- Data:  8A 15 00 00  returns 0x01 (0001ms, 0834ms total)
T14F8 003:453 JLINK_ReadMem (0x00001EBA, 0x0002 Bytes, ...) -- Unmirror addr 0x00001EBA -- CPU_ReadMem(64 bytes @ 0x00001E80) -- Updating CM cache (64 bytes @ 0x00001E80) -- Read from CM cache (2 bytes @ 0x00001EBA) -- Data:  00 26  returns 0x00 (0002ms, 0836ms total)
T14F8 003:455 JLINK_ReadMem (0x00001EBC, 0x003C Bytes, ...) -- Unmirror addr 0x00001EBC -- CPU_ReadMem(64 bytes @ 0x00001EC0) -- Updating CM cache (64 bytes @ 0x00001EC0) -- Read from CM cache (60 bytes @ 0x00001EBC) -- Data:  01 20 70 90 FF F7 00 FE FF F7 D6 FC 00 F0 3C FA ...  returns 0x00 (0001ms, 0837ms total)
T2C10 003:953 JLINK_Step() -- Unmirror addr 0x00001EBA -- Read from CM cache (2 bytes @ 0x00001EBA) -- Simulated  returns 0x00 (0000ms, 0837ms total)
T2C10 003:954 JLINK_ReadReg(R15 (PC))  returns 0x00001EBC (0000ms, 0838ms total)
T2C10 003:954 JLINK_ReadReg(XPSR)  returns 0x61000000 (0000ms, 0838ms total)
T2C10 003:954 JLINK_ReadReg(R0)  returns 0x00001EB5 (0000ms, 0838ms total)
T2C10 003:954 JLINK_ReadReg(R1)  returns 0x10000B08 (0000ms, 0838ms total)
T2C10 003:954 JLINK_ReadReg(R2)  returns 0x00000000 (0000ms, 0838ms total)
T2C10 003:954 JLINK_ReadReg(R3)  returns 0x00001DE5 (0000ms, 0838ms total)
T2C10 003:954 JLINK_ReadReg(R4)  returns 0x00004500 (0000ms, 0838ms total)
T2C10 003:954 JLINK_ReadReg(R5)  returns 0x00004500 (0000ms, 0838ms total)
T2C10 003:954 JLINK_ReadReg(R6)  returns 0x00000000 (0000ms, 0838ms total)
T2C10 003:954 JLINK_ReadReg(R7)  returns 0x00000000 (0000ms, 0838ms total)
T2C10 003:954 JLINK_ReadReg(R8)  returns 0x00000000 (0000ms, 0838ms total)
T2C10 003:954 JLINK_ReadReg(R9)  returns 0x100001DC (0000ms, 0838ms total)
T2C10 003:954 JLINK_ReadReg(R10)  returns 0x00000000 (0000ms, 0838ms total)
T2C10 003:954 JLINK_ReadReg(R11)  returns 0x00000000 (0000ms, 0838ms total)
T2C10 003:954 JLINK_ReadReg(R12)  returns 0x00000000 (0000ms, 0838ms total)
T2C10 003:954 JLINK_ReadReg(R13 (SP))  returns 0x100008C0 (0000ms, 0838ms total)
T2C10 003:954 JLINK_ReadReg(R14)  returns 0x00000141 (0000ms, 0838ms total)
T2C10 003:954 JLINK_ReadReg(R15 (PC))  returns 0x00001EBC (0000ms, 0838ms total)
T2C10 003:954 JLINK_ReadReg(XPSR)  returns 0x61000000 (0000ms, 0838ms total)
T2C10 003:954 JLINK_ReadReg(MSP)  returns 0x100008C0 (0000ms, 0838ms total)
T2C10 003:954 JLINK_ReadReg(PSP)  returns 0x10000800 (0000ms, 0838ms total)
T2C10 003:954 JLINK_ReadReg(CFBP)  returns 0x00000000 (0000ms, 0838ms total)
T14F8 003:954 JLINK_ReadMem (0x10000B04, 0x0004 Bytes, ...) -- Read from C cache (4 bytes @ 0x10000B04) -- Data:  41 01 00 00  returns 0x00 (0000ms, 0838ms total)
T14F8 003:954 JLINK_ReadMem (0x10000A80, 0x0002 Bytes, ...) -- Read from C cache (2 bytes @ 0x10000A80) -- Data:  00 00  returns 0x00 (0000ms, 0838ms total)
T14F8 003:954 JLINK_ReadMem (0x00000000, 0x0004 Bytes, ...) -- Unmirror addr 0x00000000
                JLINK_ReadMemHW(0x400FC040, 0x0004 Bytes, ...) -- CPU_ReadMem(4 bytes @ 0x400FC040) -- Data:  01 00 00 00  returns 0x00 (0001ms, 0001ms total)
               -- Read from CM cache (4 bytes @ 0x00000000) -- Data:  08 0B 00 10  returns 0x00 (0001ms, 0839ms total)
T14F8 003:955 JLINK_ReadMemU32(0xE0001004, 0x0001 Items, ...) -- Data:  8A 15 00 00  returns 0x01 (0000ms, 0839ms total)
T2C10 004:275 JLINK_ReadMem (0x00001EBC, 0x003C Bytes, ...) -- Unmirror addr 0x00001EBC -- Read from CM cache (60 bytes @ 0x00001EBC) -- Data:  01 20 70 90 FF F7 00 FE FF F7 D6 FC 00 F0 3C FA ...  returns 0x00 (0000ms, 0839ms total)
T2C10 004:275 JLINK_Step() -- Unmirror addr 0x00001EBC -- Read from CM cache (2 bytes @ 0x00001EBC) -- Simulated  returns 0x00 (0000ms, 0839ms total)
T2C10 004:275 JLINK_ReadReg(R15 (PC))  returns 0x00001EBE (0000ms, 0839ms total)
T2C10 004:275 JLINK_ReadReg(XPSR)  returns 0x21000000 (0000ms, 0839ms total)
T2C10 004:275 JLINK_Step() -- Unmirror addr 0x00001EBE -- Read from CM cache (2 bytes @ 0x00001EBE) -- CPU_WriteMem(4 bytes @ 0x10000A80) -- Invalidate MA0 status -- Simulated  returns 0x00 (0001ms, 0840ms total)
T2C10 004:276 JLINK_ReadReg(R15 (PC))  returns 0x00001EC0 (0000ms, 0840ms total)
T2C10 004:276 JLINK_ReadReg(XPSR)  returns 0x21000000 (0000ms, 0840ms total)
T2C10 004:276 JLINK_ReadReg(R0)  returns 0x00000001 (0000ms, 0840ms total)
T2C10 004:276 JLINK_ReadReg(R1)  returns 0x10000B08 (0000ms, 0840ms total)
T2C10 004:276 JLINK_ReadReg(R2)  returns 0x00000000 (0000ms, 0840ms total)
T2C10 004:276 JLINK_ReadReg(R3)  returns 0x00001DE5 (0000ms, 0840ms total)
T2C10 004:276 JLINK_ReadReg(R4)  returns 0x00004500 (0000ms, 0840ms total)
T2C10 004:276 JLINK_ReadReg(R5)  returns 0x00004500 (0000ms, 0840ms total)
T2C10 004:276 JLINK_ReadReg(R6)  returns 0x00000000 (0000ms, 0840ms total)
T2C10 004:276 JLINK_ReadReg(R7)  returns 0x00000000 (0001ms, 0841ms total)
T2C10 004:277 JLINK_ReadReg(R8)  returns 0x00000000 (0000ms, 0841ms total)
T2C10 004:277 JLINK_ReadReg(R9)  returns 0x100001DC (0000ms, 0841ms total)
T2C10 004:277 JLINK_ReadReg(R10)  returns 0x00000000 (0000ms, 0841ms total)
T2C10 004:277 JLINK_ReadReg(R11)  returns 0x00000000 (0000ms, 0841ms total)
T2C10 004:277 JLINK_ReadReg(R12)  returns 0x00000000 (0000ms, 0841ms total)
T2C10 004:277 JLINK_ReadReg(R13 (SP))  returns 0x100008C0 (0000ms, 0841ms total)
T2C10 004:277 JLINK_ReadReg(R14)  returns 0x00000141 (0000ms, 0841ms total)
T2C10 004:277 JLINK_ReadReg(R15 (PC))  returns 0x00001EC0 (0000ms, 0841ms total)
T2C10 004:277 JLINK_ReadReg(XPSR)  returns 0x21000000 (0000ms, 0841ms total)
T2C10 004:277 JLINK_ReadReg(MSP)  returns 0x100008C0 (0000ms, 0841ms total)
T2C10 004:277 JLINK_ReadReg(PSP)  returns 0x10000800 (0000ms, 0841ms total)
T2C10 004:277 JLINK_ReadReg(CFBP)  returns 0x00000000 (0000ms, 0841ms total)
T14F8 004:278 JLINK_ReadMem (0x10000B04, 0x0004 Bytes, ...) -- Read from C cache (4 bytes @ 0x10000B04) -- Data:  41 01 00 00  returns 0x00 (0000ms, 0841ms total)
T14F8 004:278 JLINK_ReadMem (0x10000A80, 0x0002 Bytes, ...) -- CPU_ReadMem(64 bytes @ 0x10000A80) -- Updating C cache (64 bytes @ 0x10000A80) -- Read from C cache (2 bytes @ 0x10000A80) -- Data:  01 00  returns 0x00 (0001ms, 0842ms total)
T14F8 004:279 JLINK_ReadMem (0x00000000, 0x0004 Bytes, ...)
                JLINK_ReadMemHW(0x400FC040, 0x0004 Bytes, ...) -- CPU_ReadMem(4 bytes @ 0x400FC040) -- Data:  01 00 00 00  returns 0x00 (0001ms, 0001ms total)
               -- MA0 is in flash -- Unmirror addr 0x00000000
                JLINK_ReadMemHW(0x400FC040, 0x0004 Bytes, ...) -- CPU_ReadMem(4 bytes @ 0x400FC040) -- Data:  01 00 00 00  returns 0x00 (0001ms, 0002ms total)
               -- CPU_ReadMem(64 bytes @ 0x00000000) -- Updating CM cache (64 bytes @ 0x00000000) -- Read from CM cache (4 bytes @ 0x00000000) -- Data:  08 0B 00 10  returns 0x00 (0003ms, 0845ms total)
T14F8 004:282 JLINK_ReadMemU32(0xE0001004, 0x0001 Items, ...) -- Data:  8A 15 00 00  returns 0x01 (0000ms, 0845ms total)
T14F8 004:286 JLINK_ReadMem (0x00001EC0, 0x003C Bytes, ...) -- Unmirror addr 0x00001EC0 -- CPU_ReadMem(64 bytes @ 0x00001EC0) -- Updating CM cache (64 bytes @ 0x00001EC0) -- Read from CM cache (60 bytes @ 0x00001EC0) -- Data:  FF F7 00 FE FF F7 D6 FC 00 F0 3C FA FF F7 AE FC ...  returns 0x00 (0001ms, 0846ms total)
T2C10 004:438 JLINK_SetBPEx(Addr = 0x00001EC4, Type = 0xFFFFFFF2) -- Unmirror addr 0x00001EC4  returns 0x00000005 (0001ms, 0847ms total)
T2C10 004:439 JLINK_SetBPEx(Addr = 0x000005A6, Type = 0xFFFFFFF2) -- Unmirror addr 0x000005A6 -- Unmirror addr 0x00001EC4  returns 0x00000006 (0000ms, 0847ms total)
T2C10 004:439 JLINK_SetBPEx(Addr = 0x000008E0, Type = 0xFFFFFFF2) -- Unmirror addr 0x000008E0 -- Unmirror addr 0x00001EC4 -- Unmirror addr 0x000005A6  returns 0x00000007 (0000ms, 0847ms total)
T2C10 004:439 JLINK_SetBPEx(Addr = 0x0000171C, Type = 0xFFFFFFF2) -- Unmirror addr 0x0000171C -- Unmirror addr 0x00001EC4 -- Unmirror addr 0x000005A6 -- Unmirror addr 0x000008E0  returns 0x00000008 (0000ms, 0847ms total)
T2C10 004:439 JLINK_Go() -- CPU_WriteMem(4 bytes @ 0xE0002000) -- CPU_WriteMem(4 bytes @ 0xE0002000) -- CPU_WriteMem(4 bytes @ 0xE0002000) -- CPU_WriteMem(4 bytes @ 0xE0002000) -- Invalidate MA0 status -- CPU_WriteMem(4 bytes @ 0xE0002008) -- CPU_WriteMem(4 bytes @ 0xE000200C) -- CPU_WriteMem(4 bytes @ 0xE0002010) -- CPU_WriteMem(4 bytes @ 0xE0002014) (0006ms, 0853ms total)
T2C10 004:545 JLINK_IsHalted()
                JLINK_ReadMemHW(0x400FC040, 0x0004 Bytes, ...) -- CPU_ReadMem(4 bytes @ 0x400FC040) -- Data:  01 00 00 00  returns 0x00 (0001ms, 0001ms total)
               -- MA0 is in flash -- Unmirror addr 0x00001EC4 -- Unmirror addr 0x00001EC4 -- Unmirror addr 0x00001EC4 -- Unmirror addr 0x00001EC4  returns TRUE (0005ms, 0858ms total)
T2C10 004:550 JLINK_Halt()  returns 0x00 (0000ms, 0853ms total)
T2C10 004:550 JLINK_IsHalted() -- Unmirror addr 0x00001EC4 -- Unmirror addr 0x00001EC4  returns TRUE (0000ms, 0853ms total)
T2C10 004:550 JLINK_IsHalted() -- Unmirror addr 0x00001EC4 -- Unmirror addr 0x00001EC4  returns TRUE (0000ms, 0853ms total)
T2C10 004:550 JLINK_IsHalted() -- Unmirror addr 0x00001EC4 -- Unmirror addr 0x00001EC4  returns TRUE (0000ms, 0853ms total)
T2C10 004:550 JLINK_ReadReg(R15 (PC))  returns 0x00001EC4 (0000ms, 0853ms total)
T2C10 004:550 JLINK_ReadReg(XPSR)  returns 0x61000000 (0000ms, 0853ms total)
T2C10 004:550 JLINK_ClrBPEx(BPHandle = 0x00000005)  returns 0x00 (0001ms, 0854ms total)
T2C10 004:551 JLINK_ClrBPEx(BPHandle = 0x00000006)  returns 0x00 (0000ms, 0854ms total)
T2C10 004:551 JLINK_ClrBPEx(BPHandle = 0x00000007)  returns 0x00 (0000ms, 0854ms total)
T2C10 004:551 JLINK_ClrBPEx(BPHandle = 0x00000008)  returns 0x00 (0000ms, 0854ms total)
T2C10 004:551 JLINK_ReadMemU32(0xE000ED30, 0x0001 Items, ...) -- CPU_ReadMem(4 bytes @ 0xE000ED30) -- Data:  03 00 00 00  returns 0x01 (0001ms, 0855ms total)
T2C10 004:552 JLINK_ReadMemU32(0xE0001028, 0x0001 Items, ...) -- CPU_ReadMem(4 bytes @ 0xE0001028) -- Data:  00 00 00 00  returns 0x01 (0001ms, 0856ms total)
T2C10 004:553 JLINK_ReadMemU32(0xE0001038, 0x0001 Items, ...) -- CPU_ReadMem(4 bytes @ 0xE0001038) -- Data:  00 02 00 00  returns 0x01 (0001ms, 0857ms total)
T2C10 004:554 JLINK_ReadMemU32(0xE0001048, 0x0001 Items, ...) -- CPU_ReadMem(4 bytes @ 0xE0001048) -- Data:  00 00 00 00  returns 0x01 (0001ms, 0858ms total)
T2C10 004:555 JLINK_ReadMemU32(0xE0001058, 0x0001 Items, ...) -- CPU_ReadMem(4 bytes @ 0xE0001058) -- Data:  00 00 00 00  returns 0x01 (0000ms, 0858ms total)
T2C10 004:556 JLINK_ReadReg(R0)  returns 0x0000403A (0000ms, 0858ms total)
T2C10 004:556 JLINK_ReadReg(R1)  returns 0x400FC000 (0000ms, 0858ms total)
T2C10 004:556 JLINK_ReadReg(R2)  returns 0x00000000 (0000ms, 0858ms total)
T2C10 004:556 JLINK_ReadReg(R3)  returns 0x00001DE5 (0000ms, 0858ms total)
T2C10 004:556 JLINK_ReadReg(R4)  returns 0x00004500 (0000ms, 0858ms total)
T2C10 004:556 JLINK_ReadReg(R5)  returns 0x00004500 (0000ms, 0858ms total)
T2C10 004:556 JLINK_ReadReg(R6)  returns 0x00000000 (0000ms, 0858ms total)
T2C10 004:556 JLINK_ReadReg(R7)  returns 0x00000000 (0000ms, 0858ms total)
T2C10 004:556 JLINK_ReadReg(R8)  returns 0x00000000 (0000ms, 0858ms total)
T2C10 004:556 JLINK_ReadReg(R9)  returns 0x100001DC (0000ms, 0858ms total)
T2C10 004:556 JLINK_ReadReg(R10)  returns 0x00000000 (0000ms, 0858ms total)
T2C10 004:556 JLINK_ReadReg(R11)  returns 0x00000000 (0000ms, 0858ms total)
T2C10 004:556 JLINK_ReadReg(R12)  returns 0x00000000 (0000ms, 0858ms total)
T2C10 004:556 JLINK_ReadReg(R13 (SP))  returns 0x100008C0 (0000ms, 0858ms total)
T2C10 004:556 JLINK_ReadReg(R14)  returns 0x00001EC5 (0000ms, 0858ms total)
T2C10 004:556 JLINK_ReadReg(R15 (PC))  returns 0x00001EC4 (0000ms, 0858ms total)
T2C10 004:556 JLINK_ReadReg(XPSR)  returns 0x61000000 (0000ms, 0858ms total)
T2C10 004:557 JLINK_ReadReg(MSP)  returns 0x100008C0 (0000ms, 0859ms total)
T2C10 004:557 JLINK_ReadReg(PSP)  returns 0x10000800 (0000ms, 0859ms total)
T2C10 004:557 JLINK_ReadReg(CFBP)  returns 0x00000000 (0000ms, 0859ms total)
T14F8 004:557 JLINK_ReadMem (0x10000B04, 0x0004 Bytes, ...) -- CPU_ReadMem(64 bytes @ 0x10000B00) -- Updating C cache (64 bytes @ 0x10000B00) -- Read from C cache (4 bytes @ 0x10000B04) -- Data:  41 01 00 00  returns 0x00 (0002ms, 0861ms total)
T14F8 004:559 JLINK_ReadMem (0x10000A80, 0x0002 Bytes, ...) -- CPU_ReadMem(64 bytes @ 0x10000A80) -- Updating C cache (64 bytes @ 0x10000A80) -- Read from C cache (2 bytes @ 0x10000A80) -- Data:  01 00  returns 0x00 (0002ms, 0863ms total)
T14F8 004:561 JLINK_ReadMem (0x00000000, 0x0004 Bytes, ...) -- Unmirror addr 0x00000000
                JLINK_ReadMemHW(0x400FC040, 0x0004 Bytes, ...) -- CPU_ReadMem(4 bytes @ 0x400FC040) -- Data:  01 00 00 00  returns 0x00 (0001ms, 0001ms total)
               -- CPU_ReadMem(64 bytes @ 0x00000000) -- Updating CM cache (64 bytes @ 0x00000000) -- Read from CM cache (4 bytes @ 0x00000000) -- Data:  08 0B 00 10  returns 0x00 (0002ms, 0865ms total)
T14F8 004:563 JLINK_ReadMemU32(0xE0001004, 0x0001 Items, ...) -- CPU_ReadMem(4 bytes @ 0xE0001004) -- Data:  87 24 00 00  returns 0x01 (0001ms, 0866ms total)
T14F8 004:569 JLINK_ReadMem (0x00001EC4, 0x003C Bytes, ...) -- Unmirror addr 0x00001EC4 -- CPU_ReadMem(64 bytes @ 0x00001EC0) -- Updating CM cache (64 bytes @ 0x00001EC0) -- Read from CM cache (60 bytes @ 0x00001EC4) -- Data:  FF F7 D6 FC 00 F0 3C FA FF F7 AE FC 77 49 08 60 ...  returns 0x00 (0002ms, 0868ms total)
T2C10 004:769 JLINK_SetBPEx(Addr = 0x00001EC8, Type = 0xFFFFFFF2) -- Unmirror addr 0x00001EC8  returns 0x00000009 (0000ms, 0868ms total)
T2C10 004:769 JLINK_SetBPEx(Addr = 0x000005A6, Type = 0xFFFFFFF2) -- Unmirror addr 0x000005A6 -- Unmirror addr 0x00001EC8  returns 0x0000000A (0000ms, 0868ms total)
T2C10 004:769 JLINK_SetBPEx(Addr = 0x000008E0, Type = 0xFFFFFFF2) -- Unmirror addr 0x000008E0 -- Unmirror addr 0x00001EC8 -- Unmirror addr 0x000005A6  returns 0x0000000B (0000ms, 0868ms total)
T2C10 004:769 JLINK_SetBPEx(Addr = 0x0000171C, Type = 0xFFFFFFF2) -- Unmirror addr 0x0000171C -- Unmirror addr 0x00001EC8 -- Unmirror addr 0x000005A6 -- Unmirror addr 0x000008E0  returns 0x0000000C (0000ms, 0868ms total)
T2C10 004:769 JLINK_Go() -- CPU_WriteMem(4 bytes @ 0xE0002000) -- CPU_WriteMem(4 bytes @ 0xE0002000) -- CPU_WriteMem(4 bytes @ 0xE0002000) -- CPU_WriteMem(4 bytes @ 0xE0002000) -- Invalidate MA0 status -- CPU_WriteMem(4 bytes @ 0xE0002008) (0005ms, 0873ms total)
T2C10 004:875 JLINK_IsHalted()
                JLINK_ReadMemHW(0x400FC040, 0x0004 Bytes, ...) -- CPU_ReadMem(4 bytes @ 0x400FC040) -- Data:  01 00 00 00  returns 0x00 (0001ms, 0001ms total)
               -- MA0 is in flash -- Unmirror addr 0x00001EC8 -- Unmirror addr 0x00001EC8 -- Unmirror addr 0x00001EC8 -- Unmirror addr 0x00001EC8  returns TRUE (0005ms, 0878ms total)
T2C10 004:880 JLINK_Halt()  returns 0x00 (0000ms, 0873ms total)
T2C10 004:880 JLINK_IsHalted() -- Unmirror addr 0x00001EC8 -- Unmirror addr 0x00001EC8  returns TRUE (0000ms, 0873ms total)
T2C10 004:880 JLINK_IsHalted() -- Unmirror addr 0x00001EC8 -- Unmirror addr 0x00001EC8  returns TRUE (0000ms, 0873ms total)
T2C10 004:880 JLINK_IsHalted() -- Unmirror addr 0x00001EC8 -- Unmirror addr 0x00001EC8  returns TRUE (0000ms, 0873ms total)
T2C10 004:880 JLINK_ReadReg(R15 (PC))  returns 0x00001EC8 (0000ms, 0873ms total)
T2C10 004:880 JLINK_ReadReg(XPSR)  returns 0x21000000 (0000ms, 0873ms total)
T2C10 004:880 JLINK_ClrBPEx(BPHandle = 0x00000009)  returns 0x00 (0000ms, 0873ms total)
T2C10 004:880 JLINK_ClrBPEx(BPHandle = 0x0000000A)  returns 0x00 (0000ms, 0873ms total)
T2C10 004:880 JLINK_ClrBPEx(BPHandle = 0x0000000B)  returns 0x00 (0000ms, 0873ms total)
T2C10 004:880 JLINK_ClrBPEx(BPHandle = 0x0000000C)  returns 0x00 (0000ms, 0873ms total)
T2C10 004:880 JLINK_ReadMemU32(0xE000ED30, 0x0001 Items, ...) -- CPU_ReadMem(4 bytes @ 0xE000ED30) -- Data:  03 00 00 00  returns 0x01 (0001ms, 0874ms total)
T2C10 004:881 JLINK_ReadMemU32(0xE0001028, 0x0001 Items, ...) -- CPU_ReadMem(4 bytes @ 0xE0001028) -- Data:  00 00 00 00  returns 0x01 (0001ms, 0875ms total)
T2C10 004:882 JLINK_ReadMemU32(0xE0001038, 0x0001 Items, ...) -- CPU_ReadMem(4 bytes @ 0xE0001038) -- Data:  00 02 00 00  returns 0x01 (0001ms, 0876ms total)
T2C10 004:883 JLINK_ReadMemU32(0xE0001048, 0x0001 Items, ...) -- CPU_ReadMem(4 bytes @ 0xE0001048) -- Data:  00 00 00 00  returns 0x01 (0001ms, 0877ms total)
T2C10 004:884 JLINK_ReadMemU32(0xE0001058, 0x0001 Items, ...) -- CPU_ReadMem(4 bytes @ 0xE0001058) -- Data:  00 00 00 00  returns 0x01 (0001ms, 0878ms total)
T2C10 004:885 JLINK_ReadReg(R0)  returns 0x00000020 (0000ms, 0878ms total)
T2C10 004:885 JLINK_ReadReg(R1)  returns 0x40020000 (0000ms, 0878ms total)
T2C10 004:885 JLINK_ReadReg(R2)  returns 0x00000000 (0000ms, 0878ms total)
T2C10 004:885 JLINK_ReadReg(R3)  returns 0x00001DE5 (0000ms, 0878ms total)
T2C10 004:885 JLINK_ReadReg(R4)  returns 0x00004500 (0000ms, 0878ms total)
T2C10 004:885 JLINK_ReadReg(R5)  returns 0x00004500 (0000ms, 0878ms total)
T2C10 004:885 JLINK_ReadReg(R6)  returns 0x00000000 (0000ms, 0878ms total)
T2C10 004:885 JLINK_ReadReg(R7)  returns 0x00000000 (0001ms, 0879ms total)
T2C10 004:886 JLINK_ReadReg(R8)  returns 0x00000000 (0000ms, 0879ms total)
T2C10 004:886 JLINK_ReadReg(R9)  returns 0x100001DC (0000ms, 0879ms total)
T2C10 004:886 JLINK_ReadReg(R10)  returns 0x00000000 (0000ms, 0879ms total)
T2C10 004:886 JLINK_ReadReg(R11)  returns 0x00000000 (0000ms, 0879ms total)
T2C10 004:886 JLINK_ReadReg(R12)  returns 0x00000000 (0000ms, 0879ms total)
T2C10 004:886 JLINK_ReadReg(R13 (SP))  returns 0x100008C0 (0000ms, 0879ms total)
T2C10 004:886 JLINK_ReadReg(R14)  returns 0x00001EC9 (0000ms, 0879ms total)
T2C10 004:886 JLINK_ReadReg(R15 (PC))  returns 0x00001EC8 (0000ms, 0879ms total)
T2C10 004:886 JLINK_ReadReg(XPSR)  returns 0x21000000 (0000ms, 0879ms total)
T2C10 004:886 JLINK_ReadReg(MSP)  returns 0x100008C0 (0000ms, 0879ms total)
T2C10 004:886 JLINK_ReadReg(PSP)  returns 0x10000800 (0000ms, 0879ms total)
T2C10 004:886 JLINK_ReadReg(CFBP)  returns 0x00000000 (0000ms, 0879ms total)
T14F8 004:887 JLINK_ReadMem (0x10000B04, 0x0004 Bytes, ...) -- CPU_ReadMem(64 bytes @ 0x10000B00) -- Updating C cache (64 bytes @ 0x10000B00) -- Read from C cache (4 bytes @ 0x10000B04) -- Data:  41 01 00 00  returns 0x00 (0002ms, 0881ms total)
T14F8 004:889 JLINK_ReadMem (0x10000A80, 0x0002 Bytes, ...) -- CPU_ReadMem(64 bytes @ 0x10000A80) -- Updating C cache (64 bytes @ 0x10000A80) -- Read from C cache (2 bytes @ 0x10000A80) -- Data:  01 00  returns 0x00 (0001ms, 0882ms total)
T14F8 004:890 JLINK_ReadMem (0x00000000, 0x0004 Bytes, ...) -- Unmirror addr 0x00000000
                JLINK_ReadMemHW(0x400FC040, 0x0004 Bytes, ...) -- CPU_ReadMem(4 bytes @ 0x400FC040) -- Data:  01 00 00 00  returns 0x00 (0001ms, 0001ms total)
               -- CPU_ReadMem(64 bytes @ 0x00000000) -- Updating CM cache (64 bytes @ 0x00000000) -- Read from CM cache (4 bytes @ 0x00000000) -- Data:  08 0B 00 10  returns 0x00 (0003ms, 0885ms total)
T14F8 004:893 JLINK_ReadMemU32(0xE0001004, 0x0001 Items, ...) -- CPU_ReadMem(4 bytes @ 0xE0001004) -- Data:  23 25 00 00  returns 0x01 (0001ms, 0886ms total)
T14F8 004:899 JLINK_ReadMem (0x00001EC8, 0x003C Bytes, ...) -- Unmirror addr 0x00001EC8 -- CPU_ReadMem(128 bytes @ 0x00001EC0) -- Updating CM cache (128 bytes @ 0x00001EC0) -- Read from CM cache (60 bytes @ 0x00001EC8) -- Data:  00 F0 3C FA FF F7 AE FC 77 49 08 60 FE F7 04 FE ...  returns 0x00 (0002ms, 0888ms total)
T2C10 005:099 JLINK_SetBPEx(Addr = 0x00001ECC, Type = 0xFFFFFFF2) -- Unmirror addr 0x00001ECC  returns 0x0000000D (0000ms, 0888ms total)
T2C10 005:099 JLINK_SetBPEx(Addr = 0x000005A6, Type = 0xFFFFFFF2) -- Unmirror addr 0x000005A6 -- Unmirror addr 0x00001ECC  returns 0x0000000E (0000ms, 0888ms total)
T2C10 005:099 JLINK_SetBPEx(Addr = 0x000008E0, Type = 0xFFFFFFF2) -- Unmirror addr 0x000008E0 -- Unmirror addr 0x00001ECC -- Unmirror addr 0x000005A6  returns 0x0000000F (0001ms, 0889ms total)
T2C10 005:100 JLINK_SetBPEx(Addr = 0x0000171C, Type = 0xFFFFFFF2) -- Unmirror addr 0x0000171C -- Unmirror addr 0x00001ECC -- Unmirror addr 0x000005A6 -- Unmirror addr 0x000008E0  returns 0x00000010 (0000ms, 0889ms total)
T2C10 005:100 JLINK_Go() -- CPU_WriteMem(4 bytes @ 0xE0002000) -- CPU_WriteMem(4 bytes @ 0xE0002000) -- CPU_WriteMem(4 bytes @ 0xE0002000) -- CPU_WriteMem(4 bytes @ 0xE0002000) -- Invalidate MA0 status -- CPU_WriteMem(4 bytes @ 0xE0002008) (0004ms, 0893ms total)
T2C10 005:205 JLINK_IsHalted()
                JLINK_ReadMemHW(0x400FC040, 0x0004 Bytes, ...) -- CPU_ReadMem(4 bytes @ 0x400FC040) -- Data:  01 00 00 00  returns 0x00 (0001ms, 0001ms total)
               -- MA0 is in flash -- Unmirror addr 0x00001ECC -- Unmirror addr 0x00001ECC -- Unmirror addr 0x00001ECC -- Unmirror addr 0x00001ECC  returns TRUE (0005ms, 0898ms total)
T2C10 005:210 JLINK_Halt()  returns 0x00 (0000ms, 0893ms total)
T2C10 005:210 JLINK_IsHalted() -- Unmirror addr 0x00001ECC -- Unmirror addr 0x00001ECC  returns TRUE (0000ms, 0893ms total)
T2C10 005:210 JLINK_IsHalted() -- Unmirror addr 0x00001ECC -- Unmirror addr 0x00001ECC  returns TRUE (0000ms, 0893ms total)
T2C10 005:210 JLINK_IsHalted() -- Unmirror addr 0x00001ECC -- Unmirror addr 0x00001ECC  returns TRUE (0000ms, 0893ms total)
T2C10 005:210 JLINK_ReadReg(R15 (PC))  returns 0x00001ECC (0000ms, 0893ms total)
T2C10 005:210 JLINK_ReadReg(XPSR)  returns 0x21000000 (0000ms, 0893ms total)
T2C10 005:210 JLINK_ClrBPEx(BPHandle = 0x0000000D)  returns 0x00 (0000ms, 0893ms total)
T2C10 005:210 JLINK_ClrBPEx(BPHandle = 0x0000000E)  returns 0x00 (0000ms, 0893ms total)
T2C10 005:210 JLINK_ClrBPEx(BPHandle = 0x0000000F)  returns 0x00 (0001ms, 0894ms total)
T2C10 005:211 JLINK_ClrBPEx(BPHandle = 0x00000010)  returns 0x00 (0000ms, 0894ms total)
T2C10 005:211 JLINK_ReadMemU32(0xE000ED30, 0x0001 Items, ...) -- CPU_ReadMem(4 bytes @ 0xE000ED30) -- Data:  03 00 00 00  returns 0x01 (0001ms, 0895ms total)
T2C10 005:212 JLINK_ReadMemU32(0xE0001028, 0x0001 Items, ...) -- CPU_ReadMem(4 bytes @ 0xE0001028) -- Data:  00 00 00 00  returns 0x01 (0001ms, 0896ms total)
T2C10 005:213 JLINK_ReadMemU32(0xE0001038, 0x0001 Items, ...) -- CPU_ReadMem(4 bytes @ 0xE0001038) -- Data:  00 02 00 00  returns 0x01 (0001ms, 0897ms total)
T2C10 005:214 JLINK_ReadMemU32(0xE0001048, 0x0001 Items, ...) -- CPU_ReadMem(4 bytes @ 0xE0001048) -- Data:  00 00 00 00  returns 0x01 (0001ms, 0898ms total)
T2C10 005:215 JLINK_ReadMemU32(0xE0001058, 0x0001 Items, ...) -- CPU_ReadMem(4 bytes @ 0xE0001058) -- Data:  00 00 00 00  returns 0x01 (0001ms, 0899ms total)
T2C10 005:216 JLINK_ReadReg(R0)  returns 0x00000002 (0000ms, 0899ms total)
T2C10 005:216 JLINK_ReadReg(R1)  returns 0x40088000 (0000ms, 0899ms total)
T2C10 005:216 JLINK_ReadReg(R2)  returns 0x00000000 (0000ms, 0899ms total)
T2C10 005:216 JLINK_ReadReg(R3)  returns 0x00001DE5 (0000ms, 0899ms total)
T2C10 005:216 JLINK_ReadReg(R4)  returns 0x00004500 (0000ms, 0899ms total)
T2C10 005:216 JLINK_ReadReg(R5)  returns 0x00004500 (0000ms, 0899ms total)
T2C10 005:216 JLINK_ReadReg(R6)  returns 0x00000000 (0000ms, 0899ms total)
T2C10 005:216 JLINK_ReadReg(R7)  returns 0x00000000 (0000ms, 0899ms total)
T2C10 005:216 JLINK_ReadReg(R8)  returns 0x00000000 (0001ms, 0900ms total)
T2C10 005:217 JLINK_ReadReg(R9)  returns 0x100001DC (0000ms, 0900ms total)
T2C10 005:217 JLINK_ReadReg(R10)  returns 0x00000000 (0000ms, 0900ms total)
T2C10 005:217 JLINK_ReadReg(R11)  returns 0x00000000 (0000ms, 0900ms total)
T2C10 005:217 JLINK_ReadReg(R12)  returns 0x00000000 (0000ms, 0900ms total)
T2C10 005:217 JLINK_ReadReg(R13 (SP))  returns 0x100008C0 (0000ms, 0900ms total)
T2C10 005:217 JLINK_ReadReg(R14)  returns 0x00001ECD (0000ms, 0900ms total)
T2C10 005:217 JLINK_ReadReg(R15 (PC))  returns 0x00001ECC (0000ms, 0900ms total)
T2C10 005:217 JLINK_ReadReg(XPSR)  returns 0x21000000 (0000ms, 0900ms total)
T2C10 005:217 JLINK_ReadReg(MSP)  returns 0x100008C0 (0000ms, 0900ms total)
T2C10 005:217 JLINK_ReadReg(PSP)  returns 0x10000800 (0000ms, 0900ms total)
T2C10 005:217 JLINK_ReadReg(CFBP)  returns 0x00000000 (0000ms, 0900ms total)
T14F8 005:218 JLINK_ReadMem (0x10000B04, 0x0004 Bytes, ...) -- CPU_ReadMem(64 bytes @ 0x10000B00) -- Updating C cache (64 bytes @ 0x10000B00) -- Read from C cache (4 bytes @ 0x10000B04) -- Data:  41 01 00 00  returns 0x00 (0002ms, 0902ms total)
T14F8 005:220 JLINK_ReadMem (0x10000A80, 0x0002 Bytes, ...) -- CPU_ReadMem(64 bytes @ 0x10000A80) -- Updating C cache (64 bytes @ 0x10000A80) -- Read from C cache (2 bytes @ 0x10000A80) -- Data:  01 00  returns 0x00 (0001ms, 0903ms total)
T14F8 005:221 JLINK_ReadMem (0x00000000, 0x0004 Bytes, ...) -- Unmirror addr 0x00000000
                JLINK_ReadMemHW(0x400FC040, 0x0004 Bytes, ...) -- CPU_ReadMem(4 bytes @ 0x400FC040) -- Data:  01 00 00 00  returns 0x00 (0001ms, 0001ms total)
               -- CPU_ReadMem(64 bytes @ 0x00000000) -- Updating CM cache (64 bytes @ 0x00000000) -- Read from CM cache (4 bytes @ 0x00000000) -- Data:  08 0B 00 10  returns 0x00 (0003ms, 0906ms total)
T14F8 005:224 JLINK_ReadMemU32(0xE0001004, 0x0001 Items, ...) -- CPU_ReadMem(4 bytes @ 0xE0001004) -- Data:  0B 27 00 00  returns 0x01 (0001ms, 0907ms total)
T2C10 005:740 JLINK_ReadMem (0x00001ECC, 0x003C Bytes, ...) -- Unmirror addr 0x00001ECC -- CPU_ReadMem(128 bytes @ 0x00001EC0) -- Updating CM cache (128 bytes @ 0x00001EC0) -- Read from CM cache (60 bytes @ 0x00001ECC) -- Data:  FF F7 AE FC 77 49 08 60 FE F7 04 FE FF F7 B2 F9 ...  returns 0x00 (0002ms, 0909ms total)
T2C10 005:742 JLINK_SetBPEx(Addr = 0x00001ED0, Type = 0xFFFFFFF2) -- Unmirror addr 0x00001ED0  returns 0x00000011 (0000ms, 0909ms total)
T2C10 005:742 JLINK_SetBPEx(Addr = 0x000005A6, Type = 0xFFFFFFF2) -- Unmirror addr 0x000005A6 -- Unmirror addr 0x00001ED0  returns 0x00000012 (0000ms, 0909ms total)
T2C10 005:742 JLINK_SetBPEx(Addr = 0x000008E0, Type = 0xFFFFFFF2) -- Unmirror addr 0x000008E0 -- Unmirror addr 0x00001ED0 -- Unmirror addr 0x000005A6  returns 0x00000013 (0000ms, 0909ms total)
T2C10 005:742 JLINK_SetBPEx(Addr = 0x0000171C, Type = 0xFFFFFFF2) -- Unmirror addr 0x0000171C -- Unmirror addr 0x00001ED0 -- Unmirror addr 0x000005A6 -- Unmirror addr 0x000008E0  returns 0x00000014 (0000ms, 0909ms total)
T2C10 005:742 JLINK_Go() -- CPU_WriteMem(4 bytes @ 0xE0002000) -- CPU_WriteMem(4 bytes @ 0xE0002000) -- CPU_WriteMem(4 bytes @ 0xE0002000) -- CPU_WriteMem(4 bytes @ 0xE0002000) -- Invalidate MA0 status -- CPU_WriteMem(4 bytes @ 0xE0002008) (0006ms, 0915ms total)
T2C10 005:848 JLINK_IsHalted()
                JLINK_ReadMemHW(0x400FC040, 0x0004 Bytes, ...) -- CPU_ReadMem(4 bytes @ 0x400FC040) -- Data:  01 00 00 00  returns 0x00 (0001ms, 0001ms total)
               -- MA0 is in flash -- Unmirror addr 0x00001ED0 -- Unmirror addr 0x00001ED0 -- Unmirror addr 0x00001ED0 -- Unmirror addr 0x00001ED0  returns TRUE (0005ms, 0920ms total)
T2C10 005:853 JLINK_Halt()  returns 0x00 (0000ms, 0915ms total)
